
T1AF4 000:409 SEGGER J-Link V4.80g Log File (0001ms, 0282ms total)
T1AF4 000:409 DLL Compiled: Feb 13 2014 20:50:02 (0001ms, 0282ms total)
T1AF4 000:409 Logging started @ 2016-04-19 20:17 (0001ms, 0282ms total)
T1AF4 000:410 JLINK_SetWarnOutHandler(...) (0000ms, 0282ms total)
T1AF4 000:410 JLINK_OpenEx(...)
Firmware: J-Link ARM V8 compiled Nov 25 2013 19:20:08
Hardware: V8.00
S/N: 308622870
Feature(s): RDI,FlashDL,FlashBP,JFlash,GDBFULL  returns O.K. (0272ms, 0554ms total)
T1AF4 000:682 JLINK_SetErrorOutHandler(...) (0000ms, 0554ms total)
T1AF4 000:682 JLINK_ExecCommand("ProjectFile = "E:\3-ÎÒµÄ³ÌÐò\HNIT-STM32F4\3 -DCMI\STM32F4_DCMI_OV7725\DCMI\Project\JLinkSettings.ini"", ...)  returns 0x00 (0001ms, 0555ms total)
T1AF4 000:693 JLINK_ExecCommand("Device = STM32F407ZE", ...)Device "STM32F407ZE" selected (512 KB flash, 128 KB RAM).  returns 0x00 (0014ms, 0569ms total)
T1AF4 000:707 JLINK_ExecCommand("DisableConnectionTimeout", ...)  returns 0x01 (0001ms, 0570ms total)
T1AF4 000:708 JLINK_GetHardwareVersion()  returns 0x13880 (0000ms, 0570ms total)
T1AF4 000:708 JLINK_GetDLLVersion()  returns 48007 (0000ms, 0570ms total)
T1AF4 000:708 JLINK_GetFirmwareString(...) (0000ms, 0570ms total)
T1AF4 000:729 JLINK_GetDLLVersion()  returns 48007 (0000ms, 0570ms total)
T1AF4 000:729 JLINK_GetCompileDateTime() (0000ms, 0570ms total)
T1AF4 000:732 JLINK_GetFirmwareString(...) (0000ms, 0570ms total)
T1AF4 000:736 JLINK_GetHardwareVersion()  returns 0x13880 (0000ms, 0570ms total)
T1AF4 000:747 JLINK_TIF_Select(JLINKARM_TIF_JTAG)  returns 0x00 (0006ms, 0576ms total)
T1AF4 000:754 JLINK_SetSpeed(2000) (0001ms, 0577ms total)
T1AF4 000:755 JLINK_GetIdData(...) >0x2F8 JTAG>TotalIRLen = 9, IRPrint = 0x0011 >0x30 JTAG> >0x210 JTAG> >0x40 JTAG> >0x40 JTAG> >0x40 JTAG> >0x30 JTAG> >0x40 JTAG> >0x40 JTAG> >0x40 JTAG> >0x40 JTAG> >0x40 JTAG> >0x40 JTAG> >0x40 JTAG> >0x40 JTAG> >0x40 JTAG> >0x40 JTAG> >0x40 JTAG> >0x2F8 JTAG>TotalIRLen = 9, IRPrint = 0x0011 >0x30 JTAG> >0x210 JTAG> >0x70 JTAG> >0x40 JTAG> >0x40 JTAG> >0x40 JTAG> >0x50 JTAG> >0x80 JTAG> >0x40 JTAG> >0x30 JTAG> >0x40 JTAG> >0x40 JTAG> >0x30 JTAG> >0x40 JTAG>
 >0x50 JTAG>Found Cortex-M4 r0p1, Little endian. -- CPU_WriteMem(4 bytes @ 0xE0002000) -- CPU_ReadMem(4 bytes @ 0xE000EDF0) -- CPU_ReadMem(4 bytes @ 0xE0002000)FPUnit: 6 code (BP) slots and 2 literal slots -- CPU_ReadMem(4 bytes @ 0xE000EDFC) -- CPU_ReadMem(4 bytes @ 0xE0001000) -- CPU_WriteMem(4 bytes @ 0xE0001000) -- CPU_ReadMem(4 bytes @ 0xE00FF010)TPIU fitted. -- CPU_ReadMem(4 bytes @ 0xE00FF014)ETM fitted. -- CPU_ReadMem(4 bytes @ 0xE00FF018) ScanLen=9 NumDevices=2 aId[0]=0x4BA00477 aIrRead[0]=0
 aScanLen[0]=0 aScanRead[0]=0 (0075ms, 0652ms total)
T1AF4 000:830 JLINK_JTAG_GetDeviceID(DeviceIndex = 0)  returns 0x4BA00477 (0000ms, 0652ms total)
T1AF4 000:830 JLINK_JTAG_GetDeviceInfo(DeviceIndex = 0)  returns 0x00 (0000ms, 0652ms total)
T1AF4 000:830 JLINK_JTAG_GetDeviceID(DeviceIndex = 1)  returns 0x6413041 (0000ms, 0652ms total)
T1AF4 000:830 JLINK_JTAG_GetDeviceInfo(DeviceIndex = 1)  returns 0x00 (0000ms, 0652ms total)
T1AF4 000:830 JLINK_GetDeviceFamily()  returns 14 (0000ms, 0652ms total)
T1AF4 000:833 JLINK_ReadMem (0xE00FFFF0, 0x0010 Bytes, ...) -- CPU is running -- CPU_ReadMem(16 bytes @ 0xE00FFFF0) -- Data:  0D 00 00 00 10 00 00 00 05 00 00 00 B1 00 00 00  returns 0x00 (0002ms, 0654ms total)
T1AF4 000:835 JLINK_ReadMem (0xE00FFFD0, 0x0020 Bytes, ...) -- CPU is running -- CPU_ReadMem(32 bytes @ 0xE00FFFD0) -- Data:  00 00 00 00 00 00 00 00 00 00 00 00 00 00 00 00 ...  returns 0x00 (0001ms, 0655ms total)
T1AF4 000:836 JLINK_ReadMem (0xE00FF000, 0x0018 Bytes, ...) -- CPU is running -- CPU_ReadMem(24 bytes @ 0xE00FF000) -- Data:  03 F0 F0 FF 03 20 F0 FF 03 30 F0 FF 03 10 F0 FF ...  returns 0x00 (0001ms, 0656ms total)
T1AF4 000:837 JLINK_ReadMemU32(0xE000ED00, 0x0001 Items, ...) -- CPU is running -- CPU_ReadMem(4 bytes @ 0xE000ED00) -- Data:  41 C2 0F 41  returns 0x01 (0001ms, 0657ms total)
T1AF4 000:838 JLINK_ReadMemU32(0xE000EF40, 0x0001 Items, ...) -- CPU is running -- CPU_ReadMem(4 bytes @ 0xE000EF40) -- Data:  21 00 11 10  returns 0x01 (0001ms, 0658ms total)
T1AF4 000:839 JLINK_ReadMemU32(0xE000EF44, 0x0001 Items, ...) -- CPU is running -- CPU_ReadMem(4 bytes @ 0xE000EF44) -- Data:  11 00 00 11  returns 0x01 (0001ms, 0659ms total)
T1AF4 000:840 JLINK_SetResetType(JLINKARM_RESET_TYPE_NORMAL)  returns JLINKARM_RESET_TYPE_NORMAL (0000ms, 0659ms total)
T1AF4 000:840 JLINK_Reset() -- CPU is running -- CPU_WriteMem(4 bytes @ 0xE000EDF0) -- CPU is running -- CPU_WriteMem(4 bytes @ 0xE000EDFC) -- CPU is running -- CPU_WriteMem(4 bytes @ 0xE000ED0C) -- CPU is running -- CPU_ReadMem(4 bytes @ 0xE000EDF0) -- CPU is running -- CPU_ReadMem(4 bytes @ 0xE000EDF0) -- CPU is running -- CPU_WriteMem(4 bytes @ 0xE000EDF0) -- CPU is running -- CPU_WriteMem(4 bytes @ 0xE000EDFC) -- CPU is running -- CPU_ReadMem(4 bytes @ 0xE000EDF0) >0x80 JTAG> >0x40 JTAG> >0x30 JTAG>
 >0x40 JTAG> >0x50 JTAG> >0x40 JTAG> -- CPU_WriteMem(4 bytes @ 0xE000EDFC) -- CPU_WriteMem(4 bytes @ 0xE0001028) -- CPU_WriteMem(4 bytes @ 0xE0001038) -- CPU_WriteMem(4 bytes @ 0xE0001048) -- CPU_WriteMem(4 bytes @ 0xE0001058) -- CPU_WriteMem(4 bytes @ 0xE0002000) -- CPU_ReadMem(4 bytes @ 0xE000EDFC) -- CPU_ReadMem(4 bytes @ 0xE0001000) (0039ms, 0698ms total)
T1AF4 000:879 JLINK_Halt()  returns 0x00 (0000ms, 0698ms total)
T1AF4 000:879 JLINK_IsHalted()  returns TRUE (0000ms, 0698ms total)
T1AF4 000:879 JLINK_ReadMemU32(0xE000EDF0, 0x0001 Items, ...) -- CPU_ReadMem(4 bytes @ 0xE000EDF0) -- Data:  03 00 03 00  returns 0x01 (0002ms, 0700ms total)
T1AF4 000:881 JLINK_WriteU32(0xE000EDF0, 0xA05F0003) -- CPU_WriteMem(4 bytes @ 0xE000EDF0)  returns 0x00 (0000ms, 0700ms total)
T1AF4 000:882 JLINK_WriteU32(0xE000EDFC, 0x01000000) -- CPU_WriteMem(4 bytes @ 0xE000EDFC)  returns 0x00 (0000ms, 0701ms total)
T1AF4 000:893 JLINK_GetHWStatus(...)  returns 0x00 (0002ms, 0703ms total)
T1AF4 000:903 JLINK_GetNumBPUnits(Type = 0xFFFFFF00)  returns 0x06 (0000ms, 0703ms total)
T1AF4 000:903 JLINK_GetNumBPUnits(Type = 0xF0)  returns 0x2000 (0000ms, 0703ms total)
T1AF4 000:903 JLINK_GetNumWPUnits()  returns 0x04 (0000ms, 0703ms total)
T1AF4 000:910 JLINK_GetSpeed()  returns 0x7D0 (0000ms, 0703ms total)
T1AF4 000:917 JLINK_ReadMemU32(0xE000E004, 0x0001 Items, ...) -- CPU_ReadMem(4 bytes @ 0xE000E004) -- Data:  02 00 00 00  returns 0x01 (0001ms, 0704ms total)
T1AF4 000:918 JLINK_ReadMemU32(0xE000E004, 0x0001 Items, ...) -- CPU_ReadMem(4 bytes @ 0xE000E004) -- Data:  02 00 00 00  returns 0x01 (0001ms, 0705ms total)
T1AF4 000:919 JLINK_WriteMem(0xE0001000, 0x001C Bytes, ...) -- Data:  01 00 00 00 00 00 00 00 00 00 00 00 00 00 00 00 ... -- CPU_WriteMem(28 bytes @ 0xE0001000)  returns 0x1C (0001ms, 0706ms total)
T1AF4 000:920 JLINK_ReadMem (0xE0001000, 0x001C Bytes, ...) -- CPU_ReadMem(28 bytes @ 0xE0001000) -- Data:  01 00 00 40 00 00 00 00 00 00 00 00 00 00 00 00 ...  returns 0x00 (0001ms, 0707ms total)
T1AF4 000:921 JLINK_Halt()  returns 0x00 (0000ms, 0707ms total)
T1AF4 000:921 JLINK_IsHalted()  returns TRUE (0000ms, 0707ms total)
T1AF4 000:924 JLINK_WriteMem(0x20000000, 0x0180 Bytes, ...) -- Data:  00 BE 0A E0 0D 78 2D 06 68 40 08 24 40 00 00 D3 ... -- CPU_WriteMem(384 bytes @ 0x20000000)  returns 0x180 (0003ms, 0710ms total)
T1AF4 000:927 JLINK_WriteReg(R0, 0x08000000)  returns 0x00 (0000ms, 0710ms total)
T1AF4 000:927 JLINK_WriteReg(R1, 0x017D7840)  returns 0x00 (0000ms, 0710ms total)
T1AF4 000:927 JLINK_WriteReg(R2, 0x00000001)  returns 0x00 (0000ms, 0710ms total)
T1AF4 000:927 JLINK_WriteReg(R3, 0x00000000)  returns 0x00 (0000ms, 0710ms total)
T1AF4 000:927 JLINK_WriteReg(R4, 0x00000000)  returns 0x00 (0000ms, 0710ms total)
T1AF4 000:927 JLINK_WriteReg(R5, 0x00000000)  returns 0x00 (0000ms, 0710ms total)
T1AF4 000:927 JLINK_WriteReg(R6, 0x00000000)  returns 0x00 (0000ms, 0710ms total)
T1AF4 000:927 JLINK_WriteReg(R7, 0x00000000)  returns 0x00 (0000ms, 0710ms total)
T1AF4 000:927 JLINK_WriteReg(R8, 0x00000000)  returns 0x00 (0000ms, 0710ms total)
T1AF4 000:927 JLINK_WriteReg(R9, 0x2000017C)  returns 0x00 (0000ms, 0710ms total)
T1AF4 000:927 JLINK_WriteReg(R10, 0x00000000)  returns 0x00 (0000ms, 0710ms total)
T1AF4 000:927 JLINK_WriteReg(R11, 0x00000000)  returns 0x00 (0000ms, 0710ms total)
T1AF4 000:927 JLINK_WriteReg(R12, 0x00000000)  returns 0x00 (0000ms, 0710ms total)
T1AF4 000:927 JLINK_WriteReg(R13 (SP), 0x20000800)  returns 0x00 (0000ms, 0710ms total)
T1AF4 000:927 JLINK_WriteReg(R14, 0x20000001)  returns 0x00 (0000ms, 0710ms total)
T1AF4 000:927 JLINK_WriteReg(R15 (PC), 0x20000054)  returns 0x00 (0000ms, 0710ms total)
T1AF4 000:927 JLINK_WriteReg(XPSR, 0x01000000)  returns 0x00 (0000ms, 0710ms total)
T1AF4 000:927 JLINK_WriteReg(MSP, 0x20000800)  returns 0x00 (0000ms, 0710ms total)
T1AF4 000:927 JLINK_WriteReg(PSP, 0x20000800)  returns 0x00 (0000ms, 0710ms total)
T1AF4 000:927 JLINK_WriteReg(CFBP, 0x00000000)  returns 0x00 (0000ms, 0710ms total)
T1AF4 000:927 JLINK_SetBPEx(Addr = 0x20000000, Type = 0xFFFFFFF2) -- CPU_ReadMem(2 bytes @ 0x20000000)  returns 0x00000001 (0002ms, 0712ms total)
T1AF4 000:929 JLINK_Go() -- CPU_WriteMem(2 bytes @ 0x20000000) -- CPU_WriteMem(4 bytes @ 0xE0002008) -- CPU_WriteMem(4 bytes @ 0xE000200C) -- CPU_WriteMem(4 bytes @ 0xE0002010) -- CPU_WriteMem(4 bytes @ 0xE0002014) -- CPU_WriteMem(4 bytes @ 0xE0002018) -- CPU_WriteMem(4 bytes @ 0xE000201C) -- CPU_WriteMem(4 bytes @ 0xE0001004) (0011ms, 0723ms total)
T1AF4 000:940 JLINK_IsHalted() -- CPU_ReadMem(2 bytes @ 0x20000000)  returns TRUE (0006ms, 0729ms total)
T1AF4 000:946 JLINK_ReadReg(R15 (PC))  returns 0x20000000 (0001ms, 0724ms total)
T1AF4 000:947 JLINK_ClrBPEx(BPHandle = 0x00000001)  returns 0x00 (0000ms, 0724ms total)
T1AF4 000:947 JLINK_ReadReg(R0)  returns 0x00000000 (0000ms, 0724ms total)
T1AF4 000:947 JLINK_WriteReg(R0, 0x08000000)  returns 0x00 (0000ms, 0724ms total)
T1AF4 000:947 JLINK_WriteReg(R1, 0x00004000)  returns 0x00 (0000ms, 0724ms total)
T1AF4 000:947 JLINK_WriteReg(R2, 0x000000FF)  returns 0x00 (0000ms, 0724ms total)
T1AF4 000:947 JLINK_WriteReg(R3, 0x00000000)  returns 0x00 (0000ms, 0724ms total)
T1AF4 000:947 JLINK_WriteReg(R4, 0x00000000)  returns 0x00 (0000ms, 0724ms total)
T1AF4 000:947 JLINK_WriteReg(R5, 0x00000000)  returns 0x00 (0000ms, 0724ms total)
T1AF4 000:947 JLINK_WriteReg(R6, 0x00000000)  returns 0x00 (0000ms, 0724ms total)
T1AF4 000:947 JLINK_WriteReg(R7, 0x00000000)  returns 0x00 (0000ms, 0724ms total)
T1AF4 000:947 JLINK_WriteReg(R8, 0x00000000)  returns 0x00 (0000ms, 0724ms total)
T1AF4 000:947 JLINK_WriteReg(R9, 0x2000017C)  returns 0x00 (0000ms, 0724ms total)
T1AF4 000:947 JLINK_WriteReg(R10, 0x00000000)  returns 0x00 (0000ms, 0724ms total)
T1AF4 000:947 JLINK_WriteReg(R11, 0x00000000)  returns 0x00 (0000ms, 0724ms total)
T1AF4 000:947 JLINK_WriteReg(R12, 0x00000000)  returns 0x00 (0000ms, 0724ms total)
T1AF4 000:947 JLINK_WriteReg(R13 (SP), 0x20000800)  returns 0x00 (0000ms, 0724ms total)
T1AF4 000:947 JLINK_WriteReg(R14, 0x20000001)  returns 0x00 (0000ms, 0724ms total)
T1AF4 000:947 JLINK_WriteReg(R15 (PC), 0x20000020)  returns 0x00 (0000ms, 0724ms total)
T1AF4 000:947 JLINK_WriteReg(XPSR, 0x01000000)  returns 0x00 (0000ms, 0724ms total)
T1AF4 000:947 JLINK_WriteReg(MSP, 0x20000800)  returns 0x00 (0000ms, 0724ms total)
T1AF4 000:947 JLINK_WriteReg(PSP, 0x20000800)  returns 0x00 (0000ms, 0724ms total)
T1AF4 000:947 JLINK_WriteReg(CFBP, 0x00000000)  returns 0x00 (0000ms, 0724ms total)
T1AF4 000:947 JLINK_SetBPEx(Addr = 0x20000000, Type = 0xFFFFFFF2)  returns 0x00000002 (0000ms, 0724ms total)
T1AF4 000:947 JLINK_Go() (0003ms, 0727ms total)
T1AF4 000:950 JLINK_IsHalted() -- CPU_ReadMem(2 bytes @ 0x20000000)  returns TRUE (0006ms, 0733ms total)
T1AF4 000:956 JLINK_ReadReg(R15 (PC))  returns 0x20000000 (0000ms, 0727ms total)
T1AF4 000:956 JLINK_ClrBPEx(BPHandle = 0x00000002)  returns 0x00 (0000ms, 0727ms total)
T1AF4 000:956 JLINK_ReadReg(R0)  returns 0x00000001 (0000ms, 0727ms total)
T1AF4 000:956 JLINK_WriteReg(R0, 0x08000000)  returns 0x00 (0000ms, 0727ms total)
T1AF4 000:956 JLINK_WriteReg(R1, 0x00004000)  returns 0x00 (0000ms, 0727ms total)
T1AF4 000:956 JLINK_WriteReg(R2, 0x000000FF)  returns 0x00 (0000ms, 0727ms total)
T1AF4 000:956 JLINK_WriteReg(R3, 0x00000000)  returns 0x00 (0000ms, 0727ms total)
T1AF4 000:956 JLINK_WriteReg(R4, 0x00000000)  returns 0x00 (0000ms, 0727ms total)
T1AF4 000:956 JLINK_WriteReg(R5, 0x00000000)  returns 0x00 (0000ms, 0727ms total)
T1AF4 000:956 JLINK_WriteReg(R6, 0x00000000)  returns 0x00 (0000ms, 0727ms total)
T1AF4 000:956 JLINK_WriteReg(R7, 0x00000000)  returns 0x00 (0000ms, 0727ms total)
T1AF4 000:956 JLINK_WriteReg(R8, 0x00000000)  returns 0x00 (0000ms, 0727ms total)
T1AF4 000:956 JLINK_WriteReg(R9, 0x2000017C)  returns 0x00 (0000ms, 0727ms total)
T1AF4 000:956 JLINK_WriteReg(R10, 0x00000000)  returns 0x00 (0000ms, 0727ms total)
T1AF4 000:956 JLINK_WriteReg(R11, 0x00000000)  returns 0x00 (0000ms, 0727ms total)
T1AF4 000:956 JLINK_WriteReg(R12, 0x00000000)  returns 0x00 (0000ms, 0727ms total)
T1AF4 000:956 JLINK_WriteReg(R13 (SP), 0x20000800)  returns 0x00 (0000ms, 0727ms total)
T1AF4 000:956 JLINK_WriteReg(R14, 0x20000001)  returns 0x00 (0000ms, 0727ms total)
T1AF4 000:956 JLINK_WriteReg(R15 (PC), 0x200000BC)  returns 0x00 (0000ms, 0727ms total)
T1AF4 000:956 JLINK_WriteReg(XPSR, 0x01000000)  returns 0x00 (0000ms, 0727ms total)
T1AF4 000:956 JLINK_WriteReg(MSP, 0x20000800)  returns 0x00 (0000ms, 0727ms total)
T1AF4 000:956 JLINK_WriteReg(PSP, 0x20000800)  returns 0x00 (0000ms, 0727ms total)
T1AF4 000:956 JLINK_WriteReg(CFBP, 0x00000000)  returns 0x00 (0000ms, 0727ms total)
T1AF4 000:956 JLINK_SetBPEx(Addr = 0x20000000, Type = 0xFFFFFFF2)  returns 0x00000003 (0000ms, 0727ms total)
T1AF4 000:956 JLINK_Go() (0003ms, 0730ms total)
T1AF4 000:959 JLINK_IsHalted()  returns FALSE (0001ms, 0731ms total)
T1AF4 001:082 JLINK_IsHalted()  returns FALSE (0002ms, 0732ms total)
T1AF4 001:190 JLINK_IsHalted()  returns FALSE (0001ms, 0731ms total)
T1AF4 001:212 JLINK_IsHalted()  returns FALSE (0001ms, 0731ms total)
T1AF4 001:220 JLINK_IsHalted()  returns FALSE (0001ms, 0731ms total)
T1AF4 001:222 JLINK_IsHalted()  returns FALSE (0001ms, 0731ms total)
T1AF4 001:224 JLINK_IsHalted()  returns FALSE (0001ms, 0731ms total)
T1AF4 001:226 JLINK_IsHalted()  returns FALSE (0001ms, 0731ms total)
T1AF4 001:228 JLINK_IsHalted()  returns FALSE (0001ms, 0731ms total)
T1AF4 001:230 JLINK_IsHalted()  returns FALSE (0001ms, 0731ms total)
T1AF4 001:232 JLINK_IsHalted()  returns FALSE (0000ms, 0730ms total)
T1AF4 001:233 JLINK_IsHalted()  returns FALSE (0000ms, 0730ms total)
T1AF4 001:241 JLINK_IsHalted()  returns FALSE (0001ms, 0731ms total)
T1AF4 001:243 JLINK_IsHalted()  returns FALSE (0001ms, 0731ms total)
T1AF4 001:245 JLINK_IsHalted()  returns FALSE (0001ms, 0731ms total)
T1AF4 001:247 JLINK_IsHalted()  returns FALSE (0001ms, 0731ms total)
T1AF4 001:336 JLINK_IsHalted() -- CPU_ReadMem(2 bytes @ 0x20000000)  returns TRUE (0006ms, 0736ms total)
T1AF4 001:342 JLINK_ReadReg(R15 (PC))  returns 0x20000000 (0000ms, 0730ms total)
T1AF4 001:342 JLINK_ClrBPEx(BPHandle = 0x00000003)  returns 0x00 (0000ms, 0730ms total)
T1AF4 001:342 JLINK_ReadReg(R0)  returns 0x00000000 (0000ms, 0730ms total)
T1AF4 001:343 JLINK_WriteReg(R0, 0x08004000)  returns 0x00 (0000ms, 0730ms total)
T1AF4 001:343 JLINK_WriteReg(R1, 0x00004000)  returns 0x00 (0000ms, 0730ms total)
T1AF4 001:343 JLINK_WriteReg(R2, 0x000000FF)  returns 0x00 (0000ms, 0730ms total)
T1AF4 001:343 JLINK_WriteReg(R3, 0x00000000)  returns 0x00 (0000ms, 0730ms total)
T1AF4 001:343 JLINK_WriteReg(R4, 0x00000000)  returns 0x00 (0000ms, 0730ms total)
T1AF4 001:343 JLINK_WriteReg(R5, 0x00000000)  returns 0x00 (0000ms, 0730ms total)
T1AF4 001:343 JLINK_WriteReg(R6, 0x00000000)  returns 0x00 (0000ms, 0730ms total)
T1AF4 001:343 JLINK_WriteReg(R7, 0x00000000)  returns 0x00 (0000ms, 0730ms total)
T1AF4 001:343 JLINK_WriteReg(R8, 0x00000000)  returns 0x00 (0000ms, 0730ms total)
T1AF4 001:343 JLINK_WriteReg(R9, 0x2000017C)  returns 0x00 (0000ms, 0730ms total)
T1AF4 001:343 JLINK_WriteReg(R10, 0x00000000)  returns 0x00 (0000ms, 0730ms total)
T1AF4 001:343 JLINK_WriteReg(R11, 0x00000000)  returns 0x00 (0000ms, 0730ms total)
T1AF4 001:343 JLINK_WriteReg(R12, 0x00000000)  returns 0x00 (0000ms, 0730ms total)
T1AF4 001:343 JLINK_WriteReg(R13 (SP), 0x20000800)  returns 0x00 (0000ms, 0730ms total)
T1AF4 001:343 JLINK_WriteReg(R14, 0x20000001)  returns 0x00 (0000ms, 0730ms total)
T1AF4 001:343 JLINK_WriteReg(R15 (PC), 0x20000020)  returns 0x00 (0000ms, 0730ms total)
T1AF4 001:343 JLINK_WriteReg(XPSR, 0x01000000)  returns 0x00 (0000ms, 0730ms total)
T1AF4 001:343 JLINK_WriteReg(MSP, 0x20000800)  returns 0x00 (0000ms, 0730ms total)
T1AF4 001:343 JLINK_WriteReg(PSP, 0x20000800)  returns 0x00 (0000ms, 0730ms total)
T1AF4 001:343 JLINK_WriteReg(CFBP, 0x00000000)  returns 0x00 (0000ms, 0730ms total)
T1AF4 001:343 JLINK_SetBPEx(Addr = 0x20000000, Type = 0xFFFFFFF2)  returns 0x00000004 (0000ms, 0730ms total)
T1AF4 001:343 JLINK_Go() (0003ms, 0733ms total)
T1AF4 001:346 JLINK_IsHalted() -- CPU_ReadMem(2 bytes @ 0x20000000)  returns TRUE (0006ms, 0739ms total)
T1AF4 001:352 JLINK_ReadReg(R15 (PC))  returns 0x20000000 (0000ms, 0733ms total)
T1AF4 001:352 JLINK_ClrBPEx(BPHandle = 0x00000004)  returns 0x00 (0000ms, 0733ms total)
T1AF4 001:352 JLINK_ReadReg(R0)  returns 0x00000001 (0000ms, 0733ms total)
T1AF4 001:352 JLINK_WriteReg(R0, 0x08004000)  returns 0x00 (0000ms, 0733ms total)
T1AF4 001:352 JLINK_WriteReg(R1, 0x00004000)  returns 0x00 (0000ms, 0733ms total)
T1AF4 001:352 JLINK_WriteReg(R2, 0x000000FF)  returns 0x00 (0000ms, 0733ms total)
T1AF4 001:352 JLINK_WriteReg(R3, 0x00000000)  returns 0x00 (0000ms, 0733ms total)
T1AF4 001:352 JLINK_WriteReg(R4, 0x00000000)  returns 0x00 (0000ms, 0733ms total)
T1AF4 001:352 JLINK_WriteReg(R5, 0x00000000)  returns 0x00 (0000ms, 0733ms total)
T1AF4 001:352 JLINK_WriteReg(R6, 0x00000000)  returns 0x00 (0000ms, 0733ms total)
T1AF4 001:352 JLINK_WriteReg(R7, 0x00000000)  returns 0x00 (0000ms, 0733ms total)
T1AF4 001:352 JLINK_WriteReg(R8, 0x00000000)  returns 0x00 (0000ms, 0733ms total)
T1AF4 001:352 JLINK_WriteReg(R9, 0x2000017C)  returns 0x00 (0000ms, 0733ms total)
T1AF4 001:352 JLINK_WriteReg(R10, 0x00000000)  returns 0x00 (0000ms, 0733ms total)
T1AF4 001:352 JLINK_WriteReg(R11, 0x00000000)  returns 0x00 (0000ms, 0733ms total)
T1AF4 001:352 JLINK_WriteReg(R12, 0x00000000)  returns 0x00 (0000ms, 0733ms total)
T1AF4 001:352 JLINK_WriteReg(R13 (SP), 0x20000800)  returns 0x00 (0000ms, 0733ms total)
T1AF4 001:352 JLINK_WriteReg(R14, 0x20000001)  returns 0x00 (0000ms, 0733ms total)
T1AF4 001:352 JLINK_WriteReg(R15 (PC), 0x200000BC)  returns 0x00 (0000ms, 0733ms total)
T1AF4 001:352 JLINK_WriteReg(XPSR, 0x01000000)  returns 0x00 (0000ms, 0733ms total)
T1AF4 001:352 JLINK_WriteReg(MSP, 0x20000800)  returns 0x00 (0000ms, 0733ms total)
T1AF4 001:352 JLINK_WriteReg(PSP, 0x20000800)  returns 0x00 (0000ms, 0733ms total)
T1AF4 001:352 JLINK_WriteReg(CFBP, 0x00000000)  returns 0x00 (0000ms, 0733ms total)
T1AF4 001:352 JLINK_SetBPEx(Addr = 0x20000000, Type = 0xFFFFFFF2)  returns 0x00000005 (0000ms, 0733ms total)
T1AF4 001:352 JLINK_Go() (0003ms, 0736ms total)
T1AF4 001:355 JLINK_IsHalted()  returns FALSE (0001ms, 0737ms total)
T1AF4 001:442 JLINK_IsHalted()  returns FALSE (0001ms, 0737ms total)
T1AF4 001:452 JLINK_IsHalted()  returns FALSE (0001ms, 0737ms total)
T1AF4 001:454 JLINK_IsHalted()  returns FALSE (0001ms, 0737ms total)
T1AF4 001:456 JLINK_IsHalted()  returns FALSE (0001ms, 0737ms total)
T1AF4 001:458 JLINK_IsHalted()  returns FALSE (0001ms, 0737ms total)
T1AF4 001:460 JLINK_IsHalted()  returns FALSE (0001ms, 0737ms total)
T1AF4 001:535 JLINK_IsHalted()  returns FALSE (0001ms, 0737ms total)
T1AF4 001:537 JLINK_IsHalted()  returns FALSE (0001ms, 0737ms total)
T1AF4 001:545 JLINK_IsHalted()  returns FALSE (0001ms, 0737ms total)
T1AF4 001:547 JLINK_IsHalted()  returns FALSE (0001ms, 0737ms total)
T1AF4 001:549 JLINK_IsHalted()  returns FALSE (0001ms, 0737ms total)
T1AF4 001:551 JLINK_IsHalted()  returns FALSE (0000ms, 0736ms total)
T1AF4 001:552 JLINK_IsHalted()  returns FALSE (0000ms, 0736ms total)
T1AF4 001:553 JLINK_IsHalted()  returns FALSE (0000ms, 0736ms total)
T1AF4 001:554 JLINK_IsHalted()  returns FALSE (0000ms, 0736ms total)
T1AF4 001:555 JLINK_IsHalted()  returns FALSE (0000ms, 0736ms total)
T1AF4 001:556 JLINK_IsHalted()  returns FALSE (0000ms, 0736ms total)
T1AF4 001:557 JLINK_IsHalted()  returns FALSE (0000ms, 0736ms total)
T1AF4 001:563 JLINK_IsHalted()  returns FALSE (0001ms, 0737ms total)
T1AF4 001:565 JLINK_IsHalted()  returns FALSE (0001ms, 0737ms total)
T1AF4 001:567 JLINK_IsHalted()  returns FALSE (0001ms, 0737ms total)
T1AF4 001:569 JLINK_IsHalted()  returns FALSE (0001ms, 0737ms total)
T1AF4 001:646 JLINK_IsHalted()  returns FALSE (0001ms, 0737ms total)
T1AF4 001:648 JLINK_IsHalted()  returns FALSE (0001ms, 0737ms total)
T1AF4 001:658 JLINK_IsHalted()  returns FALSE (0001ms, 0737ms total)
T1AF4 001:660 JLINK_IsHalted()  returns FALSE (0001ms, 0737ms total)
T1AF4 001:662 JLINK_IsHalted()  returns FALSE (0001ms, 0737ms total)
T1AF4 001:664 JLINK_IsHalted()  returns FALSE (0001ms, 0737ms total)
T1AF4 001:666 JLINK_IsHalted()  returns FALSE (0001ms, 0737ms total)
T1AF4 001:672 JLINK_IsHalted()  returns FALSE (0001ms, 0737ms total)
T1AF4 001:674 JLINK_IsHalted()  returns FALSE (0001ms, 0737ms total)
T1AF4 001:676 JLINK_IsHalted()  returns FALSE (0001ms, 0737ms total)
T1AF4 001:678 JLINK_IsHalted()  returns FALSE (0001ms, 0737ms total)
T1AF4 001:755 JLINK_IsHalted() -- CPU_ReadMem(2 bytes @ 0x20000000)  returns TRUE (0006ms, 0742ms total)
T1AF4 001:761 JLINK_ReadReg(R15 (PC))  returns 0x20000000 (0000ms, 0736ms total)
T1AF4 001:761 JLINK_ClrBPEx(BPHandle = 0x00000005)  returns 0x00 (0000ms, 0736ms total)
T1AF4 001:761 JLINK_ReadReg(R0)  returns 0x00000000 (0000ms, 0736ms total)
T1AF4 001:761 JLINK_WriteReg(R0, 0x08008000)  returns 0x00 (0000ms, 0736ms total)
T1AF4 001:762 JLINK_WriteReg(R1, 0x00004000)  returns 0x00 (0000ms, 0737ms total)
T1AF4 001:762 JLINK_WriteReg(R2, 0x000000FF)  returns 0x00 (0000ms, 0737ms total)
T1AF4 001:762 JLINK_WriteReg(R3, 0x00000000)  returns 0x00 (0000ms, 0737ms total)
T1AF4 001:762 JLINK_WriteReg(R4, 0x00000000)  returns 0x00 (0000ms, 0737ms total)
T1AF4 001:762 JLINK_WriteReg(R5, 0x00000000)  returns 0x00 (0000ms, 0737ms total)
T1AF4 001:762 JLINK_WriteReg(R6, 0x00000000)  returns 0x00 (0000ms, 0737ms total)
T1AF4 001:762 JLINK_WriteReg(R7, 0x00000000)  returns 0x00 (0000ms, 0737ms total)
T1AF4 001:762 JLINK_WriteReg(R8, 0x00000000)  returns 0x00 (0000ms, 0737ms total)
T1AF4 001:762 JLINK_WriteReg(R9, 0x2000017C)  returns 0x00 (0000ms, 0737ms total)
T1AF4 001:762 JLINK_WriteReg(R10, 0x00000000)  returns 0x00 (0000ms, 0737ms total)
T1AF4 001:762 JLINK_WriteReg(R11, 0x00000000)  returns 0x00 (0000ms, 0737ms total)
T1AF4 001:762 JLINK_WriteReg(R12, 0x00000000)  returns 0x00 (0000ms, 0737ms total)
T1AF4 001:762 JLINK_WriteReg(R13 (SP), 0x20000800)  returns 0x00 (0000ms, 0737ms total)
T1AF4 001:762 JLINK_WriteReg(R14, 0x20000001)  returns 0x00 (0000ms, 0737ms total)
T1AF4 001:762 JLINK_WriteReg(R15 (PC), 0x20000020)  returns 0x00 (0000ms, 0737ms total)
T1AF4 001:762 JLINK_WriteReg(XPSR, 0x01000000)  returns 0x00 (0000ms, 0737ms total)
T1AF4 001:762 JLINK_WriteReg(MSP, 0x20000800)  returns 0x00 (0000ms, 0737ms total)
T1AF4 001:762 JLINK_WriteReg(PSP, 0x20000800)  returns 0x00 (0000ms, 0737ms total)
T1AF4 001:762 JLINK_WriteReg(CFBP, 0x00000000)  returns 0x00 (0000ms, 0737ms total)
T1AF4 001:762 JLINK_SetBPEx(Addr = 0x20000000, Type = 0xFFFFFFF2)  returns 0x00000006 (0000ms, 0737ms total)
T1AF4 001:762 JLINK_Go() (0002ms, 0739ms total)
T1AF4 001:764 JLINK_IsHalted() -- CPU_ReadMem(2 bytes @ 0x20000000)  returns TRUE (0007ms, 0746ms total)
T1AF4 001:771 JLINK_ReadReg(R15 (PC))  returns 0x20000000 (0000ms, 0739ms total)
T1AF4 001:771 JLINK_ClrBPEx(BPHandle = 0x00000006)  returns 0x00 (0000ms, 0739ms total)
T1AF4 001:771 JLINK_ReadReg(R0)  returns 0x00000001 (0000ms, 0739ms total)
T1AF4 001:771 JLINK_WriteReg(R0, 0x08008000)  returns 0x00 (0000ms, 0739ms total)
T1AF4 001:771 JLINK_WriteReg(R1, 0x00004000)  returns 0x00 (0000ms, 0739ms total)
T1AF4 001:771 JLINK_WriteReg(R2, 0x000000FF)  returns 0x00 (0000ms, 0739ms total)
T1AF4 001:771 JLINK_WriteReg(R3, 0x00000000)  returns 0x00 (0000ms, 0739ms total)
T1AF4 001:771 JLINK_WriteReg(R4, 0x00000000)  returns 0x00 (0000ms, 0739ms total)
T1AF4 001:771 JLINK_WriteReg(R5, 0x00000000)  returns 0x00 (0000ms, 0739ms total)
T1AF4 001:771 JLINK_WriteReg(R6, 0x00000000)  returns 0x00 (0000ms, 0739ms total)
T1AF4 001:771 JLINK_WriteReg(R7, 0x00000000)  returns 0x00 (0000ms, 0739ms total)
T1AF4 001:771 JLINK_WriteReg(R8, 0x00000000)  returns 0x00 (0000ms, 0739ms total)
T1AF4 001:771 JLINK_WriteReg(R9, 0x2000017C)  returns 0x00 (0000ms, 0739ms total)
T1AF4 001:771 JLINK_WriteReg(R10, 0x00000000)  returns 0x00 (0000ms, 0739ms total)
T1AF4 001:771 JLINK_WriteReg(R11, 0x00000000)  returns 0x00 (0000ms, 0739ms total)
T1AF4 001:771 JLINK_WriteReg(R12, 0x00000000)  returns 0x00 (0000ms, 0739ms total)
T1AF4 001:771 JLINK_WriteReg(R13 (SP), 0x20000800)  returns 0x00 (0000ms, 0739ms total)
T1AF4 001:771 JLINK_WriteReg(R14, 0x20000001)  returns 0x00 (0000ms, 0739ms total)
T1AF4 001:771 JLINK_WriteReg(R15 (PC), 0x200000BC)  returns 0x00 (0000ms, 0739ms total)
T1AF4 001:771 JLINK_WriteReg(XPSR, 0x01000000)  returns 0x00 (0000ms, 0739ms total)
T1AF4 001:771 JLINK_WriteReg(MSP, 0x20000800)  returns 0x00 (0000ms, 0739ms total)
T1AF4 001:771 JLINK_WriteReg(PSP, 0x20000800)  returns 0x00 (0000ms, 0739ms total)
T1AF4 001:771 JLINK_WriteReg(CFBP, 0x00000000)  returns 0x00 (0000ms, 0739ms total)
T1AF4 001:771 JLINK_SetBPEx(Addr = 0x20000000, Type = 0xFFFFFFF2)  returns 0x00000007 (0000ms, 0739ms total)
T1AF4 001:771 JLINK_Go() (0003ms, 0742ms total)
T1AF4 001:774 JLINK_IsHalted()  returns FALSE (0001ms, 0743ms total)
T1AF4 001:786 JLINK_IsHalted()  returns FALSE (0001ms, 0743ms total)
T1AF4 001:788 JLINK_IsHalted()  returns FALSE (0001ms, 0743ms total)
T1AF4 001:877 JLINK_IsHalted()  returns FALSE (0001ms, 0743ms total)
T1AF4 001:879 JLINK_IsHalted()  returns FALSE (0001ms, 0743ms total)
T1AF4 001:890 JLINK_IsHalted()  returns FALSE (0001ms, 0743ms total)
T1AF4 001:892 JLINK_IsHalted()  returns FALSE (0001ms, 0743ms total)
T1AF4 001:894 JLINK_IsHalted()  returns FALSE (0001ms, 0743ms total)
T1AF4 001:896 JLINK_IsHalted()  returns FALSE (0001ms, 0743ms total)
T1AF4 001:986 JLINK_IsHalted()  returns FALSE (0001ms, 0743ms total)
T1AF4 001:988 JLINK_IsHalted()  returns FALSE (0001ms, 0743ms total)
T1AF4 001:990 JLINK_IsHalted()  returns FALSE (0001ms, 0743ms total)
T1AF4 001:992 JLINK_IsHalted()  returns FALSE (0001ms, 0743ms total)
T1AF4 001:998 JLINK_IsHalted()  returns FALSE (0001ms, 0743ms total)
T1AF4 002:000 JLINK_IsHalted()  returns FALSE (0001ms, 0743ms total)
T1AF4 002:002 JLINK_IsHalted()  returns FALSE (0001ms, 0743ms total)
T1AF4 002:004 JLINK_IsHalted()  returns FALSE (0001ms, 0743ms total)
T1AF4 002:006 JLINK_IsHalted()  returns FALSE (0001ms, 0743ms total)
T1AF4 002:084 JLINK_IsHalted()  returns FALSE (0002ms, 0744ms total)
T1AF4 002:094 JLINK_IsHalted()  returns FALSE (0001ms, 0743ms total)
T1AF4 002:096 JLINK_IsHalted()  returns FALSE (0001ms, 0743ms total)
T1AF4 002:098 JLINK_IsHalted()  returns FALSE (0001ms, 0743ms total)
T1AF4 002:100 JLINK_IsHalted()  returns FALSE (0001ms, 0743ms total)
T1AF4 002:102 JLINK_IsHalted()  returns FALSE (0001ms, 0743ms total)
T1AF4 002:104 JLINK_IsHalted()  returns FALSE (0000ms, 0742ms total)
T1AF4 002:105 JLINK_IsHalted()  returns FALSE (0001ms, 0743ms total)
T1AF4 002:112 JLINK_IsHalted()  returns FALSE (0001ms, 0743ms total)
T1AF4 002:114 JLINK_IsHalted()  returns FALSE (0001ms, 0743ms total)
T1AF4 002:116 JLINK_IsHalted()  returns FALSE (0001ms, 0743ms total)
T1AF4 002:118 JLINK_IsHalted()  returns FALSE (0001ms, 0743ms total)
T1AF4 002:202 JLINK_IsHalted() -- CPU_ReadMem(2 bytes @ 0x20000000)  returns TRUE (0006ms, 0748ms total)
T1AF4 002:208 JLINK_ReadReg(R15 (PC))  returns 0x20000000 (0000ms, 0742ms total)
T1AF4 002:208 JLINK_ClrBPEx(BPHandle = 0x00000007)  returns 0x00 (0000ms, 0742ms total)
T1AF4 002:208 JLINK_ReadReg(R0)  returns 0x00000000 (0000ms, 0742ms total)
T1AF4 002:209 JLINK_WriteReg(R0, 0x00000001)  returns 0x00 (0000ms, 0742ms total)
T1AF4 002:209 JLINK_WriteReg(R1, 0x00004000)  returns 0x00 (0000ms, 0742ms total)
T1AF4 002:209 JLINK_WriteReg(R2, 0x000000FF)  returns 0x00 (0000ms, 0742ms total)
T1AF4 002:209 JLINK_WriteReg(R3, 0x00000000)  returns 0x00 (0000ms, 0742ms total)
T1AF4 002:209 JLINK_WriteReg(R4, 0x00000000)  returns 0x00 (0000ms, 0742ms total)
T1AF4 002:209 JLINK_WriteReg(R5, 0x00000000)  returns 0x00 (0000ms, 0742ms total)
T1AF4 002:209 JLINK_WriteReg(R6, 0x00000000)  returns 0x00 (0000ms, 0742ms total)
T1AF4 002:209 JLINK_WriteReg(R7, 0x00000000)  returns 0x00 (0000ms, 0742ms total)
T1AF4 002:209 JLINK_WriteReg(R8, 0x00000000)  returns 0x00 (0000ms, 0742ms total)
T1AF4 002:209 JLINK_WriteReg(R9, 0x2000017C)  returns 0x00 (0000ms, 0742ms total)
T1AF4 002:209 JLINK_WriteReg(R10, 0x00000000)  returns 0x00 (0000ms, 0742ms total)
T1AF4 002:209 JLINK_WriteReg(R11, 0x00000000)  returns 0x00 (0000ms, 0742ms total)
T1AF4 002:209 JLINK_WriteReg(R12, 0x00000000)  returns 0x00 (0000ms, 0742ms total)
T1AF4 002:209 JLINK_WriteReg(R13 (SP), 0x20000800)  returns 0x00 (0000ms, 0742ms total)
T1AF4 002:209 JLINK_WriteReg(R14, 0x20000001)  returns 0x00 (0000ms, 0742ms total)
T1AF4 002:209 JLINK_WriteReg(R15 (PC), 0x20000082)  returns 0x00 (0000ms, 0742ms total)
T1AF4 002:209 JLINK_WriteReg(XPSR, 0x01000000)  returns 0x00 (0000ms, 0742ms total)
T1AF4 002:209 JLINK_WriteReg(MSP, 0x20000800)  returns 0x00 (0000ms, 0742ms total)
T1AF4 002:209 JLINK_WriteReg(PSP, 0x20000800)  returns 0x00 (0000ms, 0742ms total)
T1AF4 002:209 JLINK_WriteReg(CFBP, 0x00000000)  returns 0x00 (0000ms, 0742ms total)
T1AF4 002:209 JLINK_SetBPEx(Addr = 0x20000000, Type = 0xFFFFFFF2)  returns 0x00000008 (0000ms, 0742ms total)
T1AF4 002:209 JLINK_Go() (0003ms, 0745ms total)
T1AF4 002:212 JLINK_IsHalted() -- CPU_ReadMem(2 bytes @ 0x20000000)  returns TRUE (0006ms, 0751ms total)
T1AF4 002:218 JLINK_ReadReg(R15 (PC))  returns 0x20000000 (0000ms, 0745ms total)
T1AF4 002:218 JLINK_ClrBPEx(BPHandle = 0x00000008)  returns 0x00 (0000ms, 0745ms total)
T1AF4 002:218 JLINK_ReadReg(R0)  returns 0x00000000 (0000ms, 0745ms total)
T1AF4 002:281 JLINK_WriteMem(0x20000000, 0x0180 Bytes, ...) -- Data:  00 BE 0A E0 0D 78 2D 06 68 40 08 24 40 00 00 D3 ... -- CPU_WriteMem(384 bytes @ 0x20000000)  returns 0x180 (0003ms, 0748ms total)
T1AF4 002:284 JLINK_WriteReg(R0, 0x08000000)  returns 0x00 (0000ms, 0748ms total)
T1AF4 002:284 JLINK_WriteReg(R1, 0x017D7840)  returns 0x00 (0000ms, 0748ms total)
T1AF4 002:284 JLINK_WriteReg(R2, 0x00000002)  returns 0x00 (0000ms, 0748ms total)
T1AF4 002:284 JLINK_WriteReg(R3, 0x00000000)  returns 0x00 (0000ms, 0748ms total)
T1AF4 002:284 JLINK_WriteReg(R4, 0x00000000)  returns 0x00 (0000ms, 0748ms total)
T1AF4 002:284 JLINK_WriteReg(R5, 0x00000000)  returns 0x00 (0000ms, 0748ms total)
T1AF4 002:284 JLINK_WriteReg(R6, 0x00000000)  returns 0x00 (0000ms, 0748ms total)
T1AF4 002:284 JLINK_WriteReg(R7, 0x00000000)  returns 0x00 (0000ms, 0748ms total)
T1AF4 002:284 JLINK_WriteReg(R8, 0x00000000)  returns 0x00 (0000ms, 0748ms total)
T1AF4 002:284 JLINK_WriteReg(R9, 0x2000017C)  returns 0x00 (0000ms, 0748ms total)
T1AF4 002:284 JLINK_WriteReg(R10, 0x00000000)  returns 0x00 (0000ms, 0748ms total)
T1AF4 002:284 JLINK_WriteReg(R11, 0x00000000)  returns 0x00 (0001ms, 0749ms total)
T1AF4 002:285 JLINK_WriteReg(R12, 0x00000000)  returns 0x00 (0000ms, 0749ms total)
T1AF4 002:285 JLINK_WriteReg(R13 (SP), 0x20000800)  returns 0x00 (0000ms, 0749ms total)
T1AF4 002:285 JLINK_WriteReg(R14, 0x20000001)  returns 0x00 (0000ms, 0749ms total)
T1AF4 002:285 JLINK_WriteReg(R15 (PC), 0x20000054)  returns 0x00 (0000ms, 0749ms total)
T1AF4 002:285 JLINK_WriteReg(XPSR, 0x01000000)  returns 0x00 (0000ms, 0749ms total)
T1AF4 002:285 JLINK_WriteReg(MSP, 0x20000800)  returns 0x00 (0000ms, 0749ms total)
T1AF4 002:285 JLINK_WriteReg(PSP, 0x20000800)  returns 0x00 (0000ms, 0749ms total)
T1AF4 002:285 JLINK_WriteReg(CFBP, 0x00000000)  returns 0x00 (0000ms, 0749ms total)
T1AF4 002:285 JLINK_SetBPEx(Addr = 0x20000000, Type = 0xFFFFFFF2) -- CPU_ReadMem(2 bytes @ 0x20000000)  returns 0x00000009 (0002ms, 0751ms total)
T1AF4 002:287 JLINK_Go() -- CPU_WriteMem(2 bytes @ 0x20000000) (0004ms, 0755ms total)
T1AF4 002:291 JLINK_IsHalted() -- CPU_ReadMem(2 bytes @ 0x20000000)  returns TRUE (0006ms, 0761ms total)
T1AF4 002:297 JLINK_ReadReg(R15 (PC))  returns 0x20000000 (0000ms, 0755ms total)
T1AF4 002:297 JLINK_ClrBPEx(BPHandle = 0x00000009)  returns 0x00 (0000ms, 0755ms total)
T1AF4 002:297 JLINK_ReadReg(R0)  returns 0x00000000 (0000ms, 0755ms total)
T1AF4 002:297 JLINK_WriteMem(0x20000180, 0x0400 Bytes, ...) -- Data:  20 08 00 20 31 02 00 08 91 1B 00 08 93 1B 00 08 ... -- CPU_WriteMem(1024 bytes @ 0x20000180)  returns 0x400 (0007ms, 0762ms total)
T1AF4 002:304 JLINK_WriteReg(R0, 0x08000000)  returns 0x00 (0000ms, 0762ms total)
T1AF4 002:304 JLINK_WriteReg(R1, 0x00000400)  returns 0x00 (0000ms, 0762ms total)
T1AF4 002:304 JLINK_WriteReg(R2, 0x20000180)  returns 0x00 (0000ms, 0762ms total)
T1AF4 002:304 JLINK_WriteReg(R3, 0x00000000)  returns 0x00 (0000ms, 0762ms total)
T1AF4 002:304 JLINK_WriteReg(R4, 0x00000000)  returns 0x00 (0000ms, 0762ms total)
T1AF4 002:304 JLINK_WriteReg(R5, 0x00000000)  returns 0x00 (0000ms, 0762ms total)
T1AF4 002:304 JLINK_WriteReg(R6, 0x00000000)  returns 0x00 (0000ms, 0762ms total)
T1AF4 002:304 JLINK_WriteReg(R7, 0x00000000)  returns 0x00 (0000ms, 0762ms total)
T1AF4 002:304 JLINK_WriteReg(R8, 0x00000000)  returns 0x00 (0000ms, 0762ms total)
T1AF4 002:304 JLINK_WriteReg(R9, 0x2000017C)  returns 0x00 (0000ms, 0762ms total)
T1AF4 002:304 JLINK_WriteReg(R10, 0x00000000)  returns 0x00 (0000ms, 0762ms total)
T1AF4 002:304 JLINK_WriteReg(R11, 0x00000000)  returns 0x00 (0001ms, 0763ms total)
T1AF4 002:305 JLINK_WriteReg(R12, 0x00000000)  returns 0x00 (0000ms, 0763ms total)
T1AF4 002:305 JLINK_WriteReg(R13 (SP), 0x20000800)  returns 0x00 (0000ms, 0763ms total)
T1AF4 002:305 JLINK_WriteReg(R14, 0x20000001)  returns 0x00 (0000ms, 0763ms total)
T1AF4 002:305 JLINK_WriteReg(R15 (PC), 0x20000108)  returns 0x00 (0000ms, 0763ms total)
T1AF4 002:305 JLINK_WriteReg(XPSR, 0x01000000)  returns 0x00 (0000ms, 0763ms total)
T1AF4 002:305 JLINK_WriteReg(MSP, 0x20000800)  returns 0x00 (0000ms, 0763ms total)
T1AF4 002:305 JLINK_WriteReg(PSP, 0x20000800)  returns 0x00 (0000ms, 0763ms total)
T1AF4 002:305 JLINK_WriteReg(CFBP, 0x00000000)  returns 0x00 (0000ms, 0763ms total)
T1AF4 002:305 JLINK_SetBPEx(Addr = 0x20000000, Type = 0xFFFFFFF2)  returns 0x0000000A (0000ms, 0763ms total)
T1AF4 002:305 JLINK_Go() (0002ms, 0765ms total)
T1AF4 002:308 JLINK_IsHalted()  returns FALSE (0001ms, 0767ms total)
T1AF4 002:427 JLINK_IsHalted() -- CPU_ReadMem(2 bytes @ 0x20000000)  returns TRUE (0006ms, 0772ms total)
T1AF4 002:433 JLINK_ReadReg(R15 (PC))  returns 0x20000000 (0000ms, 0766ms total)
T1AF4 002:433 JLINK_ClrBPEx(BPHandle = 0x0000000A)  returns 0x00 (0000ms, 0766ms total)
T1AF4 002:433 JLINK_ReadReg(R0)  returns 0x00000000 (0000ms, 0766ms total)
T1AF4 002:433 JLINK_WriteMem(0x20000180, 0x0400 Bytes, ...) -- Data:  02 61 35 4A 91 61 70 47 30 B1 33 49 09 68 41 F0 ... -- CPU_WriteMem(1024 bytes @ 0x20000180)  returns 0x400 (0007ms, 0773ms total)
T1AF4 002:440 JLINK_WriteReg(R0, 0x08000400)  returns 0x00 (0000ms, 0773ms total)
T1AF4 002:440 JLINK_WriteReg(R1, 0x00000400)  returns 0x00 (0000ms, 0773ms total)
T1AF4 002:440 JLINK_WriteReg(R2, 0x20000180)  returns 0x00 (0000ms, 0773ms total)
T1AF4 002:440 JLINK_WriteReg(R3, 0x00000000)  returns 0x00 (0000ms, 0773ms total)
T1AF4 002:440 JLINK_WriteReg(R4, 0x00000000)  returns 0x00 (0000ms, 0773ms total)
T1AF4 002:440 JLINK_WriteReg(R5, 0x00000000)  returns 0x00 (0000ms, 0773ms total)
T1AF4 002:440 JLINK_WriteReg(R6, 0x00000000)  returns 0x00 (0000ms, 0773ms total)
T1AF4 002:440 JLINK_WriteReg(R7, 0x00000000)  returns 0x00 (0000ms, 0773ms total)
T1AF4 002:440 JLINK_WriteReg(R8, 0x00000000)  returns 0x00 (0000ms, 0773ms total)
T1AF4 002:440 JLINK_WriteReg(R9, 0x2000017C)  returns 0x00 (0000ms, 0773ms total)
T1AF4 002:440 JLINK_WriteReg(R10, 0x00000000)  returns 0x00 (0000ms, 0773ms total)
T1AF4 002:440 JLINK_WriteReg(R11, 0x00000000)  returns 0x00 (0000ms, 0773ms total)
T1AF4 002:440 JLINK_WriteReg(R12, 0x00000000)  returns 0x00 (0001ms, 0774ms total)
T1AF4 002:441 JLINK_WriteReg(R13 (SP), 0x20000800)  returns 0x00 (0000ms, 0774ms total)
T1AF4 002:441 JLINK_WriteReg(R14, 0x20000001)  returns 0x00 (0000ms, 0774ms total)
T1AF4 002:441 JLINK_WriteReg(R15 (PC), 0x20000108)  returns 0x00 (0000ms, 0774ms total)
T1AF4 002:441 JLINK_WriteReg(XPSR, 0x01000000)  returns 0x00 (0000ms, 0774ms total)
T1AF4 002:441 JLINK_WriteReg(MSP, 0x20000800)  returns 0x00 (0000ms, 0774ms total)
T1AF4 002:441 JLINK_WriteReg(PSP, 0x20000800)  returns 0x00 (0000ms, 0774ms total)
T1AF4 002:441 JLINK_WriteReg(CFBP, 0x00000000)  returns 0x00 (0000ms, 0774ms total)
T1AF4 002:441 JLINK_SetBPEx(Addr = 0x20000000, Type = 0xFFFFFFF2)  returns 0x0000000B (0000ms, 0774ms total)
T1AF4 002:441 JLINK_Go() (0002ms, 0776ms total)
T1AF4 002:443 JLINK_IsHalted()  returns FALSE (0001ms, 0777ms total)
T1AF4 002:539 JLINK_IsHalted() -- CPU_ReadMem(2 bytes @ 0x20000000)  returns TRUE (0006ms, 0782ms total)
T1AF4 002:545 JLINK_ReadReg(R15 (PC))  returns 0x20000000 (0000ms, 0776ms total)
T1AF4 002:545 JLINK_ClrBPEx(BPHandle = 0x0000000B)  returns 0x00 (0000ms, 0776ms total)
T1AF4 002:545 JLINK_ReadReg(R0)  returns 0x00000000 (0000ms, 0776ms total)
T1AF4 002:545 JLINK_WriteMem(0x20000180, 0x0400 Bytes, ...) -- Data:  10 3B 1F 4E 0E 40 36 B1 1E 26 06 EA D1 24 16 68 ... -- CPU_WriteMem(1024 bytes @ 0x20000180)  returns 0x400 (0007ms, 0783ms total)
T1AF4 002:552 JLINK_WriteReg(R0, 0x08000800)  returns 0x00 (0000ms, 0783ms total)
T1AF4 002:552 JLINK_WriteReg(R1, 0x00000400)  returns 0x00 (0000ms, 0783ms total)
T1AF4 002:552 JLINK_WriteReg(R2, 0x20000180)  returns 0x00 (0000ms, 0783ms total)
T1AF4 002:552 JLINK_WriteReg(R3, 0x00000000)  returns 0x00 (0000ms, 0783ms total)
T1AF4 002:552 JLINK_WriteReg(R4, 0x00000000)  returns 0x00 (0000ms, 0783ms total)
T1AF4 002:552 JLINK_WriteReg(R5, 0x00000000)  returns 0x00 (0000ms, 0783ms total)
T1AF4 002:552 JLINK_WriteReg(R6, 0x00000000)  returns 0x00 (0000ms, 0783ms total)
T1AF4 002:552 JLINK_WriteReg(R7, 0x00000000)  returns 0x00 (0000ms, 0783ms total)
T1AF4 002:552 JLINK_WriteReg(R8, 0x00000000)  returns 0x00 (0000ms, 0783ms total)
T1AF4 002:552 JLINK_WriteReg(R9, 0x2000017C)  returns 0x00 (0000ms, 0783ms total)
T1AF4 002:553 JLINK_WriteReg(R10, 0x00000000)  returns 0x00 (0000ms, 0783ms total)
T1AF4 002:553 JLINK_WriteReg(R11, 0x00000000)  returns 0x00 (0000ms, 0783ms total)
T1AF4 002:553 JLINK_WriteReg(R12, 0x00000000)  returns 0x00 (0000ms, 0783ms total)
T1AF4 002:553 JLINK_WriteReg(R13 (SP), 0x20000800)  returns 0x00 (0000ms, 0783ms total)
T1AF4 002:553 JLINK_WriteReg(R14, 0x20000001)  returns 0x00 (0000ms, 0783ms total)
T1AF4 002:553 JLINK_WriteReg(R15 (PC), 0x20000108)  returns 0x00 (0000ms, 0783ms total)
T1AF4 002:553 JLINK_WriteReg(XPSR, 0x01000000)  returns 0x00 (0000ms, 0783ms total)
T1AF4 002:553 JLINK_WriteReg(MSP, 0x20000800)  returns 0x00 (0000ms, 0783ms total)
T1AF4 002:553 JLINK_WriteReg(PSP, 0x20000800)  returns 0x00 (0000ms, 0783ms total)
T1AF4 002:553 JLINK_WriteReg(CFBP, 0x00000000)  returns 0x00 (0000ms, 0783ms total)
T1AF4 002:553 JLINK_SetBPEx(Addr = 0x20000000, Type = 0xFFFFFFF2)  returns 0x0000000C (0000ms, 0783ms total)
T1AF4 002:553 JLINK_Go() (0002ms, 0785ms total)
T1AF4 002:555 JLINK_IsHalted()  returns FALSE (0001ms, 0786ms total)
T1AF4 002:639 JLINK_IsHalted() -- CPU_ReadMem(2 bytes @ 0x20000000)  returns TRUE (0006ms, 0791ms total)
T1AF4 002:645 JLINK_ReadReg(R15 (PC))  returns 0x20000000 (0000ms, 0785ms total)
T1AF4 002:645 JLINK_ClrBPEx(BPHandle = 0x0000000C)  returns 0x00 (0000ms, 0785ms total)
T1AF4 002:645 JLINK_ReadReg(R0)  returns 0x00000000 (0000ms, 0785ms total)
T1AF4 002:645 JLINK_WriteMem(0x20000180, 0x0400 Bytes, ...) -- Data:  02 21 C2 68 12 89 41 EA 02 41 C2 68 12 7B 41 EA ... -- CPU_WriteMem(1024 bytes @ 0x20000180)  returns 0x400 (0007ms, 0792ms total)
T1AF4 002:652 JLINK_WriteReg(R0, 0x08000C00)  returns 0x00 (0000ms, 0792ms total)
T1AF4 002:652 JLINK_WriteReg(R1, 0x00000400)  returns 0x00 (0000ms, 0792ms total)
T1AF4 002:652 JLINK_WriteReg(R2, 0x20000180)  returns 0x00 (0000ms, 0792ms total)
T1AF4 002:652 JLINK_WriteReg(R3, 0x00000000)  returns 0x00 (0000ms, 0792ms total)
T1AF4 002:652 JLINK_WriteReg(R4, 0x00000000)  returns 0x00 (0000ms, 0792ms total)
T1AF4 002:652 JLINK_WriteReg(R5, 0x00000000)  returns 0x00 (0000ms, 0792ms total)
T1AF4 002:652 JLINK_WriteReg(R6, 0x00000000)  returns 0x00 (0000ms, 0792ms total)
T1AF4 002:652 JLINK_WriteReg(R7, 0x00000000)  returns 0x00 (0000ms, 0792ms total)
T1AF4 002:652 JLINK_WriteReg(R8, 0x00000000)  returns 0x00 (0000ms, 0792ms total)
T1AF4 002:652 JLINK_WriteReg(R9, 0x2000017C)  returns 0x00 (0000ms, 0792ms total)
T1AF4 002:652 JLINK_WriteReg(R10, 0x00000000)  returns 0x00 (0000ms, 0792ms total)
T1AF4 002:652 JLINK_WriteReg(R11, 0x00000000)  returns 0x00 (0001ms, 0793ms total)
T1AF4 002:653 JLINK_WriteReg(R12, 0x00000000)  returns 0x00 (0000ms, 0793ms total)
T1AF4 002:653 JLINK_WriteReg(R13 (SP), 0x20000800)  returns 0x00 (0000ms, 0793ms total)
T1AF4 002:653 JLINK_WriteReg(R14, 0x20000001)  returns 0x00 (0000ms, 0793ms total)
T1AF4 002:653 JLINK_WriteReg(R15 (PC), 0x20000108)  returns 0x00 (0000ms, 0793ms total)
T1AF4 002:653 JLINK_WriteReg(XPSR, 0x01000000)  returns 0x00 (0000ms, 0793ms total)
T1AF4 002:653 JLINK_WriteReg(MSP, 0x20000800)  returns 0x00 (0000ms, 0793ms total)
T1AF4 002:653 JLINK_WriteReg(PSP, 0x20000800)  returns 0x00 (0000ms, 0793ms total)
T1AF4 002:653 JLINK_WriteReg(CFBP, 0x00000000)  returns 0x00 (0000ms, 0793ms total)
T1AF4 002:653 JLINK_SetBPEx(Addr = 0x20000000, Type = 0xFFFFFFF2)  returns 0x0000000D (0000ms, 0793ms total)
T1AF4 002:653 JLINK_Go() (0002ms, 0795ms total)
T1AF4 002:655 JLINK_IsHalted()  returns FALSE (0001ms, 0796ms total)
T1AF4 002:745 JLINK_IsHalted() -- CPU_ReadMem(2 bytes @ 0x20000000)  returns TRUE (0006ms, 0801ms total)
T1AF4 002:751 JLINK_ReadReg(R15 (PC))  returns 0x20000000 (0000ms, 0795ms total)
T1AF4 002:751 JLINK_ClrBPEx(BPHandle = 0x0000000D)  returns 0x00 (0000ms, 0795ms total)
T1AF4 002:751 JLINK_ReadReg(R0)  returns 0x00000000 (0000ms, 0795ms total)
T1AF4 002:751 JLINK_WriteMem(0x20000180, 0x0400 Bytes, ...) -- Data:  00 92 00 9A 0A 43 00 92 00 9A C2 61 C1 61 00 9A ... -- CPU_WriteMem(1024 bytes @ 0x20000180)  returns 0x400 (0007ms, 0802ms total)
T1AF4 002:758 JLINK_WriteReg(R0, 0x08001000)  returns 0x00 (0000ms, 0802ms total)
T1AF4 002:758 JLINK_WriteReg(R1, 0x00000400)  returns 0x00 (0000ms, 0802ms total)
T1AF4 002:758 JLINK_WriteReg(R2, 0x20000180)  returns 0x00 (0000ms, 0802ms total)
T1AF4 002:758 JLINK_WriteReg(R3, 0x00000000)  returns 0x00 (0000ms, 0802ms total)
T1AF4 002:758 JLINK_WriteReg(R4, 0x00000000)  returns 0x00 (0000ms, 0802ms total)
T1AF4 002:758 JLINK_WriteReg(R5, 0x00000000)  returns 0x00 (0000ms, 0802ms total)
T1AF4 002:758 JLINK_WriteReg(R6, 0x00000000)  returns 0x00 (0000ms, 0802ms total)
T1AF4 002:758 JLINK_WriteReg(R7, 0x00000000)  returns 0x00 (0000ms, 0802ms total)
T1AF4 002:758 JLINK_WriteReg(R8, 0x00000000)  returns 0x00 (0000ms, 0802ms total)
T1AF4 002:758 JLINK_WriteReg(R9, 0x2000017C)  returns 0x00 (0000ms, 0802ms total)
T1AF4 002:758 JLINK_WriteReg(R10, 0x00000000)  returns 0x00 (0000ms, 0802ms total)
T1AF4 002:758 JLINK_WriteReg(R11, 0x00000000)  returns 0x00 (0000ms, 0802ms total)
T1AF4 002:758 JLINK_WriteReg(R12, 0x00000000)  returns 0x00 (0001ms, 0803ms total)
T1AF4 002:759 JLINK_WriteReg(R13 (SP), 0x20000800)  returns 0x00 (0000ms, 0803ms total)
T1AF4 002:759 JLINK_WriteReg(R14, 0x20000001)  returns 0x00 (0000ms, 0803ms total)
T1AF4 002:759 JLINK_WriteReg(R15 (PC), 0x20000108)  returns 0x00 (0000ms, 0803ms total)
T1AF4 002:759 JLINK_WriteReg(XPSR, 0x01000000)  returns 0x00 (0000ms, 0803ms total)
T1AF4 002:759 JLINK_WriteReg(MSP, 0x20000800)  returns 0x00 (0000ms, 0803ms total)
T1AF4 002:759 JLINK_WriteReg(PSP, 0x20000800)  returns 0x00 (0000ms, 0803ms total)
T1AF4 002:759 JLINK_WriteReg(CFBP, 0x00000000)  returns 0x00 (0000ms, 0803ms total)
T1AF4 002:759 JLINK_SetBPEx(Addr = 0x20000000, Type = 0xFFFFFFF2)  returns 0x0000000E (0000ms, 0803ms total)
T1AF4 002:759 JLINK_Go() (0002ms, 0805ms total)
T1AF4 002:761 JLINK_IsHalted()  returns FALSE (0001ms, 0806ms total)
T1AF4 002:768 JLINK_IsHalted() -- CPU_ReadMem(2 bytes @ 0x20000000)  returns TRUE (0006ms, 0811ms total)
T1AF4 002:774 JLINK_ReadReg(R15 (PC))  returns 0x20000000 (0000ms, 0805ms total)
T1AF4 002:774 JLINK_ClrBPEx(BPHandle = 0x0000000E)  returns 0x00 (0000ms, 0805ms total)
T1AF4 002:774 JLINK_ReadReg(R0)  returns 0x00000000 (0000ms, 0805ms total)
T1AF4 002:775 JLINK_WriteMem(0x20000180, 0x0400 Bytes, ...) -- Data:  70 33 1A 60 70 47 35 49 44 39 08 60 70 47 33 49 ... -- CPU_WriteMem(1024 bytes @ 0x20000180)  returns 0x400 (0007ms, 0812ms total)
T1AF4 002:782 JLINK_WriteReg(R0, 0x08001400)  returns 0x00 (0000ms, 0812ms total)
T1AF4 002:782 JLINK_WriteReg(R1, 0x00000400)  returns 0x00 (0000ms, 0812ms total)
T1AF4 002:782 JLINK_WriteReg(R2, 0x20000180)  returns 0x00 (0000ms, 0812ms total)
T1AF4 002:782 JLINK_WriteReg(R3, 0x00000000)  returns 0x00 (0000ms, 0812ms total)
T1AF4 002:782 JLINK_WriteReg(R4, 0x00000000)  returns 0x00 (0000ms, 0812ms total)
T1AF4 002:782 JLINK_WriteReg(R5, 0x00000000)  returns 0x00 (0000ms, 0812ms total)
T1AF4 002:782 JLINK_WriteReg(R6, 0x00000000)  returns 0x00 (0000ms, 0812ms total)
T1AF4 002:782 JLINK_WriteReg(R7, 0x00000000)  returns 0x00 (0000ms, 0812ms total)
T1AF4 002:782 JLINK_WriteReg(R8, 0x00000000)  returns 0x00 (0000ms, 0812ms total)
T1AF4 002:782 JLINK_WriteReg(R9, 0x2000017C)  returns 0x00 (0000ms, 0812ms total)
T1AF4 002:782 JLINK_WriteReg(R10, 0x00000000)  returns 0x00 (0000ms, 0812ms total)
T1AF4 002:782 JLINK_WriteReg(R11, 0x00000000)  returns 0x00 (0000ms, 0812ms total)
T1AF4 002:782 JLINK_WriteReg(R12, 0x00000000)  returns 0x00 (0000ms, 0812ms total)
T1AF4 002:782 JLINK_WriteReg(R13 (SP), 0x20000800)  returns 0x00 (0000ms, 0812ms total)
T1AF4 002:782 JLINK_WriteReg(R14, 0x20000001)  returns 0x00 (0000ms, 0812ms total)
T1AF4 002:782 JLINK_WriteReg(R15 (PC), 0x20000108)  returns 0x00 (0000ms, 0812ms total)
T1AF4 002:782 JLINK_WriteReg(XPSR, 0x01000000)  returns 0x00 (0000ms, 0812ms total)
T1AF4 002:782 JLINK_WriteReg(MSP, 0x20000800)  returns 0x00 (0000ms, 0812ms total)
T1AF4 002:782 JLINK_WriteReg(PSP, 0x20000800)  returns 0x00 (0000ms, 0812ms total)
T1AF4 002:782 JLINK_WriteReg(CFBP, 0x00000000)  returns 0x00 (0000ms, 0812ms total)
T1AF4 002:782 JLINK_SetBPEx(Addr = 0x20000000, Type = 0xFFFFFFF2)  returns 0x0000000F (0000ms, 0812ms total)
T1AF4 002:782 JLINK_Go() (0003ms, 0815ms total)
T1AF4 002:785 JLINK_IsHalted()  returns FALSE (0001ms, 0816ms total)
T1AF4 002:875 JLINK_IsHalted() -- CPU_ReadMem(2 bytes @ 0x20000000)  returns TRUE (0006ms, 0821ms total)
T1AF4 002:881 JLINK_ReadReg(R15 (PC))  returns 0x20000000 (0000ms, 0815ms total)
T1AF4 002:881 JLINK_ClrBPEx(BPHandle = 0x0000000F)  returns 0x00 (0000ms, 0815ms total)
T1AF4 002:881 JLINK_ReadReg(R0)  returns 0x00000000 (0000ms, 0815ms total)
T1AF4 002:882 JLINK_WriteMem(0x20000180, 0x0400 Bytes, ...) -- Data:  00 21 60 05 FF F7 E4 FE 10 BD 2D E9 FF 47 05 46 ... -- CPU_WriteMem(1024 bytes @ 0x20000180)  returns 0x400 (0007ms, 0822ms total)
T1AF4 002:889 JLINK_WriteReg(R0, 0x08001800)  returns 0x00 (0000ms, 0822ms total)
T1AF4 002:889 JLINK_WriteReg(R1, 0x00000400)  returns 0x00 (0000ms, 0822ms total)
T1AF4 002:889 JLINK_WriteReg(R2, 0x20000180)  returns 0x00 (0000ms, 0822ms total)
T1AF4 002:889 JLINK_WriteReg(R3, 0x00000000)  returns 0x00 (0000ms, 0822ms total)
T1AF4 002:889 JLINK_WriteReg(R4, 0x00000000)  returns 0x00 (0000ms, 0822ms total)
T1AF4 002:889 JLINK_WriteReg(R5, 0x00000000)  returns 0x00 (0000ms, 0822ms total)
T1AF4 002:889 JLINK_WriteReg(R6, 0x00000000)  returns 0x00 (0000ms, 0822ms total)
T1AF4 002:889 JLINK_WriteReg(R7, 0x00000000)  returns 0x00 (0000ms, 0822ms total)
T1AF4 002:889 JLINK_WriteReg(R8, 0x00000000)  returns 0x00 (0000ms, 0822ms total)
T1AF4 002:889 JLINK_WriteReg(R9, 0x2000017C)  returns 0x00 (0000ms, 0822ms total)
T1AF4 002:889 JLINK_WriteReg(R10, 0x00000000)  returns 0x00 (0000ms, 0822ms total)
T1AF4 002:889 JLINK_WriteReg(R11, 0x00000000)  returns 0x00 (0000ms, 0822ms total)
T1AF4 002:889 JLINK_WriteReg(R12, 0x00000000)  returns 0x00 (0000ms, 0822ms total)
T1AF4 002:889 JLINK_WriteReg(R13 (SP), 0x20000800)  returns 0x00 (0000ms, 0822ms total)
T1AF4 002:889 JLINK_WriteReg(R14, 0x20000001)  returns 0x00 (0000ms, 0822ms total)
T1AF4 002:889 JLINK_WriteReg(R15 (PC), 0x20000108)  returns 0x00 (0000ms, 0822ms total)
T1AF4 002:889 JLINK_WriteReg(XPSR, 0x01000000)  returns 0x00 (0000ms, 0822ms total)
T1AF4 002:889 JLINK_WriteReg(MSP, 0x20000800)  returns 0x00 (0000ms, 0822ms total)
T1AF4 002:889 JLINK_WriteReg(PSP, 0x20000800)  returns 0x00 (0000ms, 0822ms total)
T1AF4 002:889 JLINK_WriteReg(CFBP, 0x00000000)  returns 0x00 (0000ms, 0822ms total)
T1AF4 002:889 JLINK_SetBPEx(Addr = 0x20000000, Type = 0xFFFFFFF2)  returns 0x00000010 (0000ms, 0822ms total)
T1AF4 002:889 JLINK_Go() (0003ms, 0825ms total)
T1AF4 002:892 JLINK_IsHalted()  returns FALSE (0001ms, 0826ms total)
T1AF4 002:983 JLINK_IsHalted() -- CPU_ReadMem(2 bytes @ 0x20000000)  returns TRUE (0006ms, 0831ms total)
T1AF4 002:989 JLINK_ReadReg(R15 (PC))  returns 0x20000000 (0000ms, 0825ms total)
T1AF4 002:989 JLINK_ClrBPEx(BPHandle = 0x00000010)  returns 0x00 (0000ms, 0825ms total)
T1AF4 002:989 JLINK_ReadReg(R0)  returns 0x00000000 (0000ms, 0825ms total)
